!Keysight Technologies N9914A: A.11.55
!Date: Friday, 18 October 2024 17:53:47
!TimeZone: (UTC+09:00) Osaka, Sapporo, Tokyo!Model: N9914A
!Serial: MY58313407
!GPS Latitude: 
!GPS Longitude: 
!GPS TimeStamp: 0001-01-01 00:00:00Z
!GPS Seconds Since Last Read: 0
!CHECKSUM:0052522190
!Correction: S21(Rdy)
!S1P File: Measurement: S21:
# Hz S DB R 50
2480000000	-26.5524589996027	24.9663195467383
2480000000	-26.562088694832	24.9812073166787
2480000000	-26.5583644412958	24.9895200989344
2480000000	-26.5447003255328	24.8845813481633
2480000000	-26.5533643980623	24.8633726691416
2480000000	-26.5548636318242	24.8274237116501
2480000000	-26.5641052287528	24.8013288783824
2480000000	-26.5605442992529	24.8566219012343
2480000000	-26.5658166447734	24.8206145787323
2480000000	-26.5692353575773	24.8006617212786
2480000000	-26.5801612003285	24.8410133811509
2480000000	-26.57278761319	24.8554661838206
2480000000	-26.5862684358187	24.816571973727
2480000000	-26.5781073122285	24.7912535479914
2480000000	-26.5769110929912	24.7990541797423
2480000000	-26.5893217768383	24.8537057145773
2480000000	-26.5974024848048	24.8386547734982
2480000000	-26.5967107729318	24.8434131444376
2480000000	-26.6027764549042	24.7832170670456
2480000000	-26.607853839787	24.9437790166073
2480000000	-26.5931684230828	24.953003345163
2480000000	-26.6151905134635	24.8435144631654
2480000000	-26.6092580058177	24.883460581683
2480000000	-26.6126235584383	24.9475103114259
2480000000	-26.6251401030313	24.8901682763064
2480000000	-26.6354737920057	24.9373129974093
2480000000	-26.6332583277402	24.9621957225727
2480000000	-26.6334049126326	24.978746612434
2480000000	-26.6389298031536	24.9558205060181
2480000000	-26.6483936222676	24.9797632939254
2480000000	-26.6640518902248	25.0444756302367
2480000000	-26.6576704789542	25.0133246207974
2480000000	-26.6681377111284	25.0079572544421
2480000000	-26.656917375955	25.0657606902133
2480000000	-26.66344182867	25.0581801848477
2480000000	-26.6668172466103	25.0985174902021
2480000000	-26.6758410754442	25.1499183796066
2480000000	-26.6880526880223	25.1276496387804
2480000000	-26.6836347210234	25.2309321291531
2480000000	-26.6849671711344	25.2223961155489
2480000000	-26.6907975320843	25.289914684745
2480000000	-26.7053545861185	25.2950953239424
2480000000	-26.7028548948969	25.322951052396
2480000000	-26.7132237401374	25.3545617584889
2480000000	-26.7188764414517	25.385525576199
2480000000	-26.7159551823063	25.4133891690466
2480000000	-26.7114359282648	25.5364017959302
2480000000	-26.7254015266443	25.4407791649652
2480000000	-26.7203052295424	25.5698456365266
2480000000	-26.7288060300885	25.5458567788559
2480000000	-26.7322603890332	25.5899856317948
2480000000	-26.7340208504004	25.6231907911022
2480000000	-26.7344607284018	25.6031414051706
2480000000	-26.7447292920269	25.5809615520391
2480000000	-26.7371214469107	25.628585102381
2480000000	-26.7315431858418	25.6211519012969
2480000000	-26.7420625119834	25.646656677343
2480000000	-26.7435923691327	25.6832269151411
2480000000	-26.7413107533506	25.668288977386
2480000000	-26.7413394269007	25.6729245036937
2480000000	-26.7457857552475	25.6797552877383
2480000000	-26.7463831250272	25.708676196815
2480000000	-26.7358685848839	25.7745307802546
2480000000	-26.6093221811587	26.5164491213818
2480000000	-26.754846895889	25.8175893995987
2480000000	-26.7518062950462	25.8486434494952
2480000000	-26.7463456830473	25.8145465125604
2480000000	-26.7906072304397	25.9642541622514
2480000000	-26.7576324619986	25.9412252079401
2480000000	-26.7671535724767	25.9207655556205
2480000000	-26.7744515248491	25.9537048444677
2480000000	-26.7709790346993	25.9694509027999
2480000000	-26.7661479815087	25.9224544635327
2480000000	-26.7692842086602	26.1382856338011
2480000000	-26.7931336199342	26.0380850384104
2480000000	-26.7787094324704	26.111882804022
2480000000	-26.789062897626	26.1282909684072
2480000000	-26.7906295950919	26.1889072249206
2480000000	-26.7952392507742	26.1890132428076
2480000000	-26.7908744103961	26.3664787639005
2480000000	-26.7820293196151	26.2585704552454
2480000000	-26.7986889510625	26.2950021670173
2480000000	-26.7857151576226	26.3721352330574
2480000000	-26.7908932383815	26.2883207245082
2480000000	-26.7899028612275	26.3172414786075
2480000000	-26.8063553732671	26.3701128874828
2480000000	-26.8134546223013	26.3292258507495
2480000000	-26.8073641394047	26.4086936090924
2480000000	-26.81064856271	26.3919879443239
2480000000	-26.8083160952728	26.3167710057699
2480000000	-26.8116336783205	26.3562056140081
2480000000	-26.8197669261281	26.4667892404785
2480000000	-26.8197532501321	26.4739459957141
2480000000	-26.8272573363485	26.4725141126498
2480000000	-26.7815020984203	26.2317765314075
2480000000	-26.8198040895645	26.478759350836
2480000000	-26.8267875770199	26.365418461682
2480000000	-26.8180583769211	26.36185565445
2480000000	-26.8391909139362	26.427524555893
2480000000	-26.8325268536701	26.4207762004595
2480000000	-26.8258360584225	26.4600954786233
2480000000	-26.8395127188156	26.424882865293
2480000000	-26.8389564581344	26.4502391796985
2480000000	-26.8353663123178	26.3626954317824
2480000000	-26.8404710494354	26.4355531157353
2480000000	-26.8370190225241	26.3958352899806
2480000000	-26.8329287084968	26.3686166134398
2480000000	-26.8450127767644	26.3972979303563
2480000000	-26.8499038226634	26.3481600506781
2480000000	-26.8438573291164	26.4133643283909
2480000000	-26.8383338990359	26.3265797348439
2480000000	-26.8397691805481	26.355318822662
2480000000	-26.8485271922774	26.293038541472
2480000000	-26.8357037716275	26.4423403107338
2480000000	-26.8315015930571	26.3264786545024
2480000000	-26.8400399979804	26.2843521330311
2480000000	-26.844200454402	26.2848706461538
2480000000	-26.8405306338274	26.3012012666299
2480000000	-26.864149039132	26.3910707630147
2480000000	-26.8634283385008	26.4233642364797
2480000000	-26.861856877889	26.3763156209327
2480000000	-26.8596091416767	26.3885504878973
2480000000	-26.8758248255006	26.4058741260083
2480000000	-26.864350574598	26.3454450394702
2480000000	-26.8683449559618	26.4098210650642
2480000000	-26.8742546543476	26.3751070024196
2480000000	-26.8737030051492	26.3941306574599
2480000000	-26.8841737895616	26.3136450273692
2480000000	-26.8754670299755	26.3085399067774
2480000000	-26.8845153486509	26.2494034839818
2480000000	-26.8982533863	26.3495498701869
2480000000	-26.9034612886782	26.3535523015851
2480000000	-26.9088780062965	26.4310888423647
2480000000	-26.9135486135738	26.462178975238
2480000000	-26.916647575965	26.3824507785306
2480000000	-26.9185600106509	26.3530947913159
2480000000	-26.9306992192548	26.325095878053
2480000000	-26.9271917304605	26.4157568592804
2480000000	-26.9447892454771	26.3296145467833
2480000000	-26.9424116255031	26.393634015103
2480000000	-26.9436347955938	26.4088977842877
2480000000	-26.9447301748135	26.3804756410552
2480000000	-26.9686662334996	26.4742671404852
2480000000	-26.961488770968	26.5255499862941
2480000000	-26.9677439261221	26.5560646080305
2480000000	-26.9766506386662	26.5345320937722
2480000000	-26.9842114507304	26.6026756259832
2480000000	-26.990075835804	26.4950560464092
2480000000	-27.0057336316117	26.5670652125464
2480000000	-26.9920600098738	26.6579322861993
2480000000	-27.0076244421498	26.6178491221215
2480000000	-27.0277670846485	26.5816625682303
2480000000	-27.017235832418	26.6500655996338
2480000000	-27.0363609462444	26.6453855035679
2480000000	-27.0328534545354	26.6707141811605
2480000000	-27.0324828774742	26.6375935557952
2480000000	-27.0574290379173	26.6003439529681
2480000000	-27.049781537409	26.6885793203327
2480000000	-27.0689639495994	26.6096494654895
2480000000	-27.0821878474252	26.6327135768167
2480000000	-27.0702591124529	26.5684176686178
2480000000	-27.083054861269	26.589935257591
2480000000	-27.0804887617335	26.6502182201551
2480000000	-27.0882823202215	26.7104038329825
2480000000	-27.0959164381366	26.7186213330721
2480000000	-27.0979208833972	26.6639816666171
2480000000	-27.1189815462827	26.7419999200619
2480000000	-27.1120470295042	26.7587272816229
2480000000	-27.1123663286943	26.735640319745
2480000000	-27.1272601859034	26.776856913727
2480000000	-27.1513230738627	26.7916410995341
2480000000	-27.1359809811908	26.8065216854302
2480000000	-27.1563416187194	26.8439191271142
2480000000	-27.1483398309092	26.9818286048444
2480000000	-27.1712197318686	26.9393924148652
2480000000	-27.1644384930038	26.9071197946707
2480000000	-27.1810138829923	26.9598322451055
2480000000	-27.1828746874937	26.9825445963394
2480000000	-27.1903875742519	26.947267143527
2480000000	-27.1902006301709	27.0441267177014
2480000000	-27.187345590407	26.8951560972961
2480000000	-27.1972292030155	27.0134160647733
2480000000	-27.1984571499517	26.9602688350343
2480000000	-27.2072432404452	26.9552423909363
2480000000	-27.204014535367	26.9558600756922
2480000000	-27.1973544526964	27.019346452625
2480000000	-27.2177319293362	26.9414534150045
2480000000	-27.2303510028465	26.9735672550545
2480000000	-27.2234089317301	26.9897105794129
2480000000	-27.2270913853228	26.9452815213911
2480000000	-27.2255988117943	26.9612999529014
2480000000	-27.2377398725704	27.0345856352948
2480000000	-27.2424435547532	26.9366183201584
2480000000	-27.2474443744982	26.9913923152837
2480000000	-27.2317075362736	27.0221029099327
2480000000	-27.2429780904139	26.990365121119
2480000000	-27.24313668049	26.9988230601012
2480000000	-27.2508912620989	27.0144915499431
2480000000	-27.2529517187	26.9703347382076
2480000000	-27.242764711371	27.0316807085503
2480000000	-27.250441077937	26.954725440577
2480000000	-27.2455424191864	27.0200790763263
2480000000	-27.2650838385329	26.9745127250811
2480000000	-27.2534707779517	26.9107961696164
2480000000	-27.2454027174984	27.0127945609824
2480000000	-27.2648789518146	26.9393379969342
2480000000	-27.2526165532744	26.9496727651149
2480000000	-27.2617437232409	27.0245636005355
2480000000	-27.2502374710845	26.902180557564
2480000000	-27.2618123944113	26.9845901388364
2480000000	-27.2546110428038	26.9713986871312
2480000000	-27.2646100572853	26.9613535975726
2480000000	-27.2603654849399	26.9945548228125
2480000000	-27.2496957691913	27.0105396961998
2480000000	-27.2651185336605	27.0187509897912
2480000000	-27.2526440276405	27.0422314055375
2480000000	-27.2628828073911	27.0569439657527
2480000000	-27.2596785798152	27.1101201524846
2480000000	-27.2641376785544	27.1206755361702
2480000000	-27.260240961176	27.0305483215206
2480000000	-27.2571628018345	27.1011380153548
2480000000	-27.2609247703485	27.1132280789049
2480000000	-27.2631143443205	27.0800858658168
2480000000	-27.2775404627458	27.0774045298002
2480000000	-27.2561182882643	27.0518204778219
2480000000	-27.2619357007691	27.1869348622849
2480000000	-27.2605932237931	27.0777396622348
2480000000	-27.2574789269995	27.1038868276885
2480000000	-27.2583671053382	27.0328340634274
2480000000	-27.2528947227155	27.096214974094
2480000000	-27.2559839998738	27.0471235432492
2480000000	-27.2511359397573	27.109074963498
2480000000	-27.2620059156776	26.9963204909195
2480000000	-27.2509420354144	27.1490403415871
2480000000	-27.256352926923	27.135139703685
2480000000	-27.2584524585723	27.1563324197519
2480000000	-27.2486724190345	27.1536717334602
2480000000	-27.2574601336589	27.1478169971608
2480000000	-27.2382419294668	27.0800638398441
2480000000	-27.2467932326115	27.1142010801464
2480000000	-27.2542311158656	27.1940724771266
2480000000	-27.2464533883594	27.162525443706
2480000000	-27.2446491975942	27.2557378655146
2480000000	-27.2482161517691	27.1734122205385
2480000000	-27.2440434316316	27.179821499315
2480000000	-27.2497218433509	27.1447833190347
2480000000	-27.255698731869	27.2206781566718
2480000000	-27.2407553310409	27.1709455437756
2480000000	-27.242509829545	27.223301652717
2480000000	-27.2342564503164	27.1911131893705
2480000000	-27.2498146142109	27.2820998939682
2480000000	-27.2431016791869	27.1902694207452
2480000000	-27.2448518507562	27.2353204474853
2480000000	-27.2510454253191	27.2901904188697
2480000000	-27.2421728059342	27.253271791705
2480000000	-27.2394218556886	27.3457710198967
2480000000	-27.2444150880096	27.2647983615817
2480000000	-27.2394830382178	27.1911337709008
2480000000	-27.239949059512	27.247208508853
2480000000	-27.2359931508523	27.3198636737671
2480000000	-27.1480878745514	27.4593224776146
2480000000	-27.2380830258561	27.3213942224234
2480000000	-27.2424522143091	27.256566652238
2480000000	-27.2374908946785	27.2556352803595
2480000000	-27.2357169348679	27.3622014042666
2480000000	-27.2388519184898	27.2580796341494
2480000000	-27.2493055660075	27.3493896336148
2480000000	-27.2417039986955	27.3949198103356
2480000000	-27.2299557737191	27.460417521824
2480000000	-27.2408305967016	27.3902720519313
2480000000	-27.2403924174893	27.4115318980865
2480000000	-27.24400401975	27.3533175418475
2480000000	-27.2449397849811	27.4326936337496
2480000000	-27.2335971340218	27.4726568715838
2480000000	-27.365953779073	26.8861799594655
2480000000	-27.257506838038	27.4062898400521
2480000000	-27.2484747581405	27.3130891210576
2480000000	-27.2518396064543	27.4541324839767
2480000000	-27.2426073505735	27.3465871694387
2480000000	-27.2351490627319	27.3048075856231
2480000000	-27.2407085381596	27.3278772054029
2480000000	-27.2428263877532	27.4307497823877
2480000000	-27.2453043777257	27.3976997616982
2480000000	-27.2399599549808	27.3523360399805
2480000000	-27.2464155975491	27.4122904950838
2480000000	-27.2336350169529	27.4334858976759
2480000000	-27.2405567473133	27.3549882894245
2480000000	-27.2416301508468	27.3221982279958
2480000000	-27.2542721869212	27.366243126348
2480000000	-27.2185103845468	27.3919808678649
2480000000	-27.247078454451	27.3330317957951
2480000000	-27.2331326882572	27.3445869545602
2480000000	-27.2556892753339	27.3451997464538
2480000000	-27.2312476993111	27.4068666343518
2480000000	-27.2359354594275	27.3452762317247
2480000000	-27.2382892283166	27.4636603963416
2480000000	-27.2430194355695	27.4250743356844
2480000000	-27.2389851472955	27.3728500857907
2480000000	-27.2518320453459	27.3812298664242
2480000000	-27.2361928035551	27.3554293898596
2480000000	-27.2494812861338	27.4465712583233
2480000000	-27.257662736253	27.3786624758548
2480000000	-27.2399788015217	27.4439113138022
2480000000	-27.2456265045399	27.3913149861722
2480000000	-27.2372352273321	27.4554612011305
2480000000	-27.2490276860448	27.3973344500497
2480000000	-27.2483151673978	27.4377468120751
2480000000	-27.2683098303704	27.4600649254364
2480000000	-27.2621166288998	27.509110874053
2480000000	-27.2474106435995	27.4906362974122
2480000000	-27.2655779958265	27.5317299157918
2480000000	-27.261635428626	27.5376774245462
2480000000	-27.2436290752484	27.5530550756562
2480000000	-27.258185715762	27.5713061934918
2480000000	-27.2647720142149	27.5541934396584
2480000000	-27.2560848799852	27.5520957222811
2480000000	-27.2630592960826	27.5090012995072
2480000000	-27.2637720654749	27.5145426555816
2480000000	-27.2661490700798	27.5937304239322
2480000000	-27.2585145499052	27.5936693563356
2480000000	-27.2601406944677	27.6779216419795
2480000000	-27.2720782837679	27.5676337300011
2480000000	-27.2728347909744	27.681801038881
2480000000	-27.2726090999245	27.613017212955
2480000000	-27.2881934302422	27.7187223580391
2480000000	-27.2775525767371	27.6860370974033
2480000000	-27.2887228509914	27.7525769252651
2480000000	-27.2716608428091	27.7848596972989
2480000000	-27.3064782904857	27.8141123530593
2480000000	-27.2916052138957	27.7865745122408
2480000000	-27.2935746906093	27.8766359514307
2480000000	-27.2903328259326	27.8779932208289
2480000000	-27.3056937225878	27.8787966183674
2480000000	-27.2958411731526	27.8151040827974
2480000000	-27.28989899695	27.8207841048728
2480000000	-27.2930336417183	27.9278563813126
2480000000	-27.2984279266787	27.8616607194311
2480000000	-27.2893677235908	27.8922369703901
2480000000	-27.3031021652314	27.9555427706924
2480000000	-27.3058340036924	28.0463770094324
2480000000	-27.302904687241	27.9803137834944
2480000000	-27.3023000587624	28.024057953561
2480000000	-27.3166991038235	28.1824850706281
2480000000	-27.3129548111055	28.0979266935495
2480000000	-27.3146364106641	28.0557221827869
2480000000	-27.3131075465563	28.0933475872261
2480000000	-27.3145286843272	28.1878579437381
2480000000	-27.3167826749034	28.1603123845719
2480000000	-27.3300219531266	28.11521338295
2480000000	-27.3347385150013	28.1634755391793
2480000000	-27.3173433255588	28.1897612466482
2480000000	-27.3286248752285	28.1687894504507
2480000000	-27.3257392139974	28.150417137408
2480000000	-27.3216200182457	28.2070444167045
2480000000	-27.3309037266467	28.2076595316775
2480000000	-27.3334463187026	28.2213408168375
2480000000	-27.3245554371025	28.2224568380059
2480000000	-27.3422227717162	28.2160598489386
2480000000	-27.3377088898677	28.2263763978338
2480000000	-27.3483793079144	28.2381848434771
2480000000	-27.3330317504837	28.291445764673
2480000000	-27.3471930649425	28.301342019855
2480000000	-27.3440587667045	28.2004255349018
2480000000	-27.3279064411984	28.2853498220842
2480000000	-27.3401956121804	28.3103665180992
2480000000	-27.3497712004308	28.2844284452108
2480000000	-27.3490917491342	28.3259779869656
2480000000	-27.3263260540064	28.3055167824445
2480000000	-27.3426576425204	28.3559210442457
2480000000	-27.3460163285688	28.3208452973627
2480000000	-27.3370620688265	28.2814993884724
2480000000	-27.3489321996698	28.2362863095529
2480000000	-27.3574629641011	28.3489910107424
2480000000	-27.3558251261208	28.3658122928485
2480000000	-27.3293955900425	28.347606429384
2480000000	-27.3505961241933	28.3311261571073
2480000000	-27.3450282761858	28.254738595296
2480000000	-27.3504827512554	28.3091529748382
2480000000	-27.3550726840853	28.2162808486931
2480000000	-27.347126563512	28.2942318136362
2480000000	-27.3450177276801	28.2533589653042
2480000000	-27.3445259217511	28.3252137747945
2480000000	-27.3419340699254	28.3543374798849
2480000000	-27.358603870297	28.2730008549527
2480000000	-27.3388520757079	28.395243787614
2480000000	-27.3362363985287	28.2332208280281
2480000000	-27.3453881973254	28.3820769339681
2480000000	-27.3544391864024	28.3226288552458
2480000000	-27.3513749908058	28.3973864022636
2480000000	-27.341448306836	28.3747182217937
2480000000	-27.3383816075065	28.2477058513533
2480000000	-27.3328067469054	28.2068840404944
2480000000	-27.3346081232615	28.2650571156928
2480000000	-27.3284384669123	28.2962398176592
2480000000	-27.3363515231034	28.1782530684823
2480000000	-27.350628998701	28.2585745190344
2480000000	-27.3442367963956	28.2257430328332
2480000000	-27.3360520490325	28.2121951921075
2480000000	-27.3474100430729	28.2856505809513
2480000000	-27.3422430541772	28.2922614248448
2480000000	-27.3476018088446	28.2674649025082
2480000000	-27.3419277885474	28.2139099613808
2480000000	-27.3482023450485	28.2291181780233
2480000000	-27.3431966102848	28.2780614729186
2480000000	-27.3410934751581	28.2155085677446
2480000000	-27.3417421418338	28.2633054415154
2480000000	-27.3455675258761	28.2394103118238
2480000000	-27.3483141190909	28.2456610065272
2480000000	-27.3477370681206	28.183383969411
2480000000	-27.3482882982243	28.1694202700608
2480000000	-27.3473273264897	28.2366670879911
2480000000	-27.3474048075152	28.251671320898
2480000000	-27.3515417996518	28.2180221368999
2480000000	-27.3655473363011	28.2528949975158
2480000000	-27.3609565110508	28.1795126802945
2480000000	-27.3476263308467	28.2842289593686
2480000000	-27.3606848138296	28.2323125448814
2480000000	-27.355381197332	28.2851445501563
2480000000	-27.3677649172137	28.1954372346307
2480000000	-27.3636366727564	28.2743542931806
